Index;Frequency (Hz);Z' (Ω);-Z'' (Ω);Z (Ω);-Phase (°);Time (s)
1;1000000;43.778928077386;30.5781555788994;53.400544399962;34.9330451832989;10.2561899741056
2;794330;47.8701179432971;24.4080236074152;53.7336003663007;27.0161324947902;12.4062289686773
3;630960;49.6493052153951;19.1670946263731;53.2205883543935;21.1090618066861;13.9962579646628
4;501190;50.7702716056792;14.9500416851399;52.9256480857992;16.4078285689425;15.7262889602949
5;398110;51.2158632541925;11.5888711305092;52.5106330465716;12.7498983155579;17.3563199561795
6;316230;51.2537722738235;9.10814182758961;52.0567711239225;10.0766536021436;19.916365949716
7;251190;51.0270083609142;7.33705895084131;51.5517993508755;8.18234924951424;23.2464279413084
8;199530;50.823475936256;6.23176467698336;51.2041072301089;6.99047803308584;24.7114549376096
9;158490;50.6684623641831;5.60360550964479;50.9773819753267;6.31089808075581;26.2214819337971
10;125890;50.6291958889924;5.35700102985752;50.9118152927183;6.03990954726519;27.7015109300604
11;100000;50.6619780352063;5.39241010705312;50.9481511460659;6.07563005802986;30.0465539241397
12;79433;50.8754817512938;5.68397085774045;51.1920127377101;6.37483098932137;31.3565769208323
13;63096;51.2076131409256;6.18974655074908;51.5803509677203;6.89221943037708;32.776607917247
14;50119;51.671574155413;6.87140626998352;52.1264596901181;7.57488267415288;34.2266329135861
15;39811;52.2805815693955;7.74800200850275;52.8515916918117;8.42989734189652;35.6766589099251
16;31623;52.9892262231267;8.78323874688347;53.7122274590289;9.41150185625949;37.1566859061884
17;25119;53.8324539866018;10.0009540534684;54.7535586441574;10.5243835128164;38.5917109025653
18;19953;54.7857959748512;11.4154528600934;55.9624517386349;11.7700383204546;40.0117378989801
19;15849;55.8312092159364;13.0590114383579;57.3381347992837;13.1648987709825;42.3067808931856
20;12589;56.967862411287;15.0073668946062;58.9114454823564;14.7584462801905;43.6468048898024
21;10000;58.1050635366414;17.3098682298024;60.6286231637356;16.5891290964454;45.981851883907
22;7943.3;59.4291071267833;20.1192401795026;62.7423509225404;18.7031115307229;47.3468738804606
23;6309.6;60.8607740058824;23.5341607499881;65.2525136282226;21.1409125128908;48.7969028767997
24;5011.9;62.4267578175467;27.7044753267598;68.2981555002891;23.931249632643;50.2469268731387
25;3981.1;64.1655329703311;32.8077503486387;72.0663867854164;27.0805991437156;51.6669528695535
26;3162.3;66.1212258259206;39.03722762291;76.78490506086;30.5571241998918;53.0869818659683
27;2511.9;68.3505675336124;46.6515578098618;82.7536580959041;34.3148492170889;54.5670098622315
28;1995.3;70.9384720027291;55.9783109069737;90.3650269854427;38.2773506369275;57.4370628549854
29;1584.9;73.9466559649382;67.3868627978216;100.045475690455;42.3426054353556;58.6320818519682
30;1258.9;77.5108026560448;81.3521078234379;112.365875494745;46.3851420363782;60.012109848484
31;1000;81.7673010519569;98.4237541468802;127.95751991066;50.2812838430739;61.4321358448988
32;794.33;86.9045367613157;119.282572682942;147.582961941954;53.9244081622754;62.9321638411116
33;630.96;93.1589034661635;144.752166161789;172.138812891074;57.2356724109508;64.4121908373749
34;501.19;100.764690065044;175.794144856437;202.625526846225;60.1787912246484;65.8472178337518
35;398.11;110.136967220868;213.691168608777;240.403966460613;62.7333073324378;68.2722618276291
36;316.23;121.60727244187;259.76992092652;286.825278748094;64.9140827422087;70.5473048218852
37;251.19;135.621145922383;315.605399706279;343.511082128453;66.7459595338935;72.8573478160529
38;199.53;152.981608336079;383.679126062704;413.05331891335;68.2617038286727;75.1273888103216
39;158.49;174.297483806247;466.12230358045;497.644064323422;69.4976818386767;76.4274118070393
40;125.89;200.848065664855;566.953788590818;601.478631273627;70.4928883455787;79.5624727991241
41;100;233.131287295669;688.308352171782;726.717678872318;71.2886663113996;81.3075037947183
42;79.433;273.049704448838;834.919529647169;878.434267367711;71.8903322951475;83.657547788785
43;63.096;323.169209988067;1010.11529770383;1060.55233389947;72.2588110675017;84.987570785427
44;50.119;381.854721444912;1227.54946345588;1285.57019004043;72.7206105572496;94.8377567605577
45;39.811;455.215671474304;1486.7123181716;1554.84237932949;72.9759629330605;104.047924737304
46;31.623;545.452201850958;1799.21457473778;1880.07744267434;73.1347279647499;106.737973730513
47;25.119;652.490556074518;2176.25936203074;2271.97023232984;73.310109844664;108.358002726422
48;19.953;784.406822300085;2631.21521387739;2745.64884218845;73.3998500304877;110.45804172112
49;15.849;942.659340399218;3179.75317710913;3316.53989865605;73.4871868351055;113.308095713925
50;12.589;1134.63785677767;3846.88238998334;4010.72402296604;73.5665776779899;115.193128709165
51;10;1368.49558361516;4643.1360659404;4840.60871060765;73.5778996738367;117.553175703207
52;7.9433;1639.37984502794;5598.34278789687;5833.43880117729;73.678224672572;122.433267690886
53;6.3096;1977.8971654676;6759.28914357241;7042.73149591695;73.6895156210424;124.833310684826
54;5.0119;2393.80529634265;8169.94598451571;8513.42006403434;73.6693436598718;127.423355678287
55;3.9811;2884.18031567284;9870.03294517295;10282.8034325331;73.7107992806334;131.058424669109
56;3.1623;3476.43309851959;11925.133519485;12421.5295574267;73.7474596691134;133.583471662734
57;2.5119;4187.30120183474;14410.1378737165;15006.1842216602;73.7971799162553;136.268521655955
58;1.9953;5050.55372006152;17398.3934680898;18116.62739446;73.8125941049181;139.058574648911
59;1.5849;6101.00227039202;21039.2534390514;21905.990367385;73.8287986382525;141.963624641576
60;1.2589;7358.28853406055;25415.0145411062;26458.7863341297;73.8529349880986;146.583711629912
61;1;8935.69749678155;30801.1875517318;32071.1684282152;73.8220876373002;155.173871608224
62;0.79433;10809.1435054858;37246.807614171;38783.5307929701;73.8171011844004;160.568970594602
63;0.63096;13078.5081961149;45017.4503419345;46878.7607763301;73.8003170700735;166.539081579529
64;0.50119;15897.7936452726;54553.8347280349;56823.0650908715;73.7530968597589;175.809253556124
65;0.39811;19262.7344328829;65913.4792824064;68670.5154265205;73.7093822341796;183.179391537516
66;0.31623;23384.4960896279;79644.0913471724;83006.119918248;73.6371048393273;191.954552515361
67;0.25119;28384.2482592507;96191.3745011886;100291.804638618;73.5596707553134;202.204742489482
68;0.19953;34515.491174031;116167.221488568;121186.395603461;73.4523140387045;214.344967458831
69;0.15849;41814.6960648385;140341.685508751;146438.579269371;73.4086155113706;228.79023442236
70;0.12589;50818.4039180211;169589.309203034;177039.66779436;73.3188553533518;246.200556378403
71;0.1;61783.4311042932;204352.270468409;213487.804814731;73.1779447548353;267.245947325269
